
T12C0 000:367 SEGGER J-Link V4.96d Log File (0001ms, 0274ms total)
T12C0 000:367 DLL Compiled: Jan 29 2015 11:45:37 (0001ms, 0274ms total)
T12C0 000:367 Logging started @ 2018-07-22 18:39 (0001ms, 0274ms total)
T12C0 000:368 JLINK_SetWarnOutHandler(...) (0000ms, 0274ms total)
T12C0 000:368 JLINK_OpenEx(...)
Firmware: J-Link ARM V8 compiled Nov 28 2014 13:44:46
Hardware: V8.00
Feature(s): RDI,FlashDL,FlashBP,JFlash,GDB  returns O.K. (0264ms, 0538ms total)
T12C0 000:632 JLINK_SetErrorOutHandler(...) (0000ms, 0538ms total)
T12C0 000:632 JLINK_ExecCommand("ProjectFile = "C:\Users\Administrator\Desktop\工程车一键\工程车一键20180711\JLinkSettings.ini"", ...)  returns 0x00 (0031ms, 0569ms total)
T12C0 000:673 JLINK_ExecCommand("Device = STM32F405RG", ...)Device "STM32F405RG" selected.  returns 0x00 (0009ms, 0578ms total)
T12C0 000:682 JLINK_ExecCommand("DisableConnectionTimeout", ...)  returns 0x01 (0000ms, 0578ms total)
T12C0 000:682 JLINK_GetHardwareVersion()  returns 0x13880 (0000ms, 0578ms total)
T12C0 000:682 JLINK_GetDLLVersion()  returns 49604 (0000ms, 0578ms total)
T12C0 000:682 JLINK_GetFirmwareString(...) (0000ms, 0578ms total)
T12C0 000:701 JLINK_GetDLLVersion()  returns 49604 (0000ms, 0578ms total)
T12C0 000:701 JLINK_GetCompileDateTime() (0000ms, 0578ms total)
T12C0 000:707 JLINK_GetFirmwareString(...) (0000ms, 0578ms total)
T12C0 000:712 JLINK_GetHardwareVersion()  returns 0x13880 (0001ms, 0579ms total)
T12C0 000:728 JLINK_TIF_Select(JLINKARM_TIF_SWD)  returns 0x00 (0002ms, 0581ms total)
T12C0 000:730 JLINK_SetSpeed(10000) (0000ms, 0581ms total)
T12C0 000:730 JLINK_GetId() >0x108 TIF>Found SWD-DP with ID 0x2BA01477 >0x0D TIF> >0x28 TIF> >0x0D TIF> >0x28 TIF> >0x0D TIF> >0x21 TIF> >0x0D TIF> >0x28 TIF> >0x0D TIF> >0x28 TIF> >0x0D TIF> >0x28 TIF> >0x0D TIF> >0x21 TIF> >0x0D TIF> >0x21 TIF> >0x0D TIF> >0x28 TIF> >0x0D TIF> >0x21 TIF> >0x0D TIF> >0x21 TIF> >0x0D TIF> >0x28 TIF> >0x0D TIF> >0x28 TIF> >0x0D TIF> >0x28 TIF> >0x0D TIF> >0x21 TIF> >0x0D TIF> >0x21 TIF> >0x0D TIF> >0x28 TIF> >0x0D TIF> >0x28 TIF> >0x108 TIF>Found SWD-DP with ID 0x2BA01477
 >0x0D TIF> >0x21 TIF> >0x0D TIF> >0x28 TIF> >0x0D TIF> >0x28 TIF> >0x0D TIF> >0x21 TIF> >0x0D TIF> >0x28 TIF> >0x0D TIF> >0x21 TIF> >0x0D TIF> >0x21 TIF> >0x0D TIF> >0x21 TIF> >0x0D TIF> >0x21 TIF> >0x0D TIF> >0x28 TIF> >0x0D TIF> >0x28 TIF> >0x0D TIF> >0x21 TIF> >0x0D TIF> >0x28 TIF> >0x0D TIF> >0x28 TIF> >0x0D TIF> >0x28 TIF> >0x0D TIF> >0x21 TIF> >0x0D TIF> >0x21 TIF> >0x0D TIF> >0x28 TIF> >0x0D TIF> >0x21 TIF> >0x0D TIF> >0x21 TIF>Found Cortex-M4 r0p1, Little endian.
 -- CPU_WriteMem(4 bytes @ 0xE0002000) -- CPU_ReadMem(4 bytes @ 0xE000EDF0) -- CPU_WriteMem(4 bytes @ 0xE000EDF0) -- CPU_ReadMem(4 bytes @ 0xE0002000)FPUnit: 6 code (BP) slots and 2 literal slots -- CPU_ReadMem(4 bytes @ 0xE000EDFC) -- CPU_WriteMem(4 bytes @ 0xE000EDFC) -- CPU_ReadMem(4 bytes @ 0xE0001000) -- CPU_WriteMem(4 bytes @ 0xE0001000) -- CPU_ReadMem(4 bytes @ 0xE000ED88) -- CPU_WriteMem(4 bytes @ 0xE000ED88) -- CPU_ReadMem(4 bytes @ 0xE000ED88) -- CPU_WriteMem(4 bytes @ 0xE000ED88)
 -- CPU_ReadMem(4 bytes @ 0xE00FF010)TPIU fitted. -- CPU_ReadMem(4 bytes @ 0xE00FF014)ETM fitted. -- CPU_ReadMem(4 bytes @ 0xE00FF018) >0x0D TIF> >0x21 TIF>  returns 0x2BA01477 (0077ms, 0658ms total)
T12C0 000:807 JLINK_GetDLLVersion()  returns 49604 (0000ms, 0658ms total)
T12C0 000:807 JLINK_CORE_GetFound()  returns 0xE0000FF (0000ms, 0658ms total)
T12C0 000:807 JLINK_GetDebugInfo(0x100) -- Value=0xE00FF003  returns 0x00 (0000ms, 0658ms total)
T12C0 000:813 JLINK_ReadMem (0xE00FF000, 0x0020 Bytes, ...) -- CPU is running -- CPU_ReadMem(32 bytes @ 0xE00FF000) - Data: 03 F0 F0 FF 03 20 F0 FF 03 30 F0 FF 03 10 F0 FF ...  returns 0x00 (0001ms, 0659ms total)
T12C0 000:814 JLINK_ReadMem (0xE000EFF0, 0x0010 Bytes, ...) -- CPU is running -- CPU_ReadMem(16 bytes @ 0xE000EFF0) - Data: 0D 00 00 00 E0 00 00 00 05 00 00 00 B1 00 00 00  returns 0x00 (0001ms, 0660ms total)
T12C0 000:815 JLINK_ReadMem (0xE000EFD0, 0x0020 Bytes, ...) -- CPU is running -- CPU_ReadMem(32 bytes @ 0xE000EFD0) - Data: 04 00 00 00 00 00 00 00 00 00 00 00 00 00 00 00 ...  returns 0x00 (0001ms, 0661ms total)
T12C0 000:816 JLINK_ReadMem (0xE0001FF0, 0x0010 Bytes, ...) -- CPU is running -- CPU_ReadMem(16 bytes @ 0xE0001FF0) - Data: 0D 00 00 00 E0 00 00 00 05 00 00 00 B1 00 00 00  returns 0x00 (0001ms, 0662ms total)
T12C0 000:817 JLINK_ReadMem (0xE0001FD0, 0x0020 Bytes, ...) -- CPU is running -- CPU_ReadMem(32 bytes @ 0xE0001FD0) - Data: 04 00 00 00 00 00 00 00 00 00 00 00 00 00 00 00 ...  returns 0x00 (0001ms, 0663ms total)
T12C0 000:818 JLINK_ReadMem (0xE0002FF0, 0x0010 Bytes, ...) -- CPU is running -- CPU_ReadMem(16 bytes @ 0xE0002FF0) - Data: 0D 00 00 00 E0 00 00 00 05 00 00 00 B1 00 00 00  returns 0x00 (0000ms, 0663ms total)
T12C0 000:818 JLINK_ReadMem (0xE0002FD0, 0x0020 Bytes, ...) -- CPU is running -- CPU_ReadMem(32 bytes @ 0xE0002FD0) - Data: 04 00 00 00 00 00 00 00 00 00 00 00 00 00 00 00 ...  returns 0x00 (0001ms, 0664ms total)
T12C0 000:819 JLINK_ReadMem (0xE0000FF0, 0x0010 Bytes, ...) -- CPU is running -- CPU_ReadMem(16 bytes @ 0xE0000FF0) - Data: 0D 00 00 00 E0 00 00 00 05 00 00 00 B1 00 00 00  returns 0x00 (0001ms, 0665ms total)
T12C0 000:820 JLINK_ReadMem (0xE0000FD0, 0x0020 Bytes, ...) -- CPU is running -- CPU_ReadMem(32 bytes @ 0xE0000FD0) - Data: 04 00 00 00 00 00 00 00 00 00 00 00 00 00 00 00 ...  returns 0x00 (0001ms, 0666ms total)
T12C0 000:821 JLINK_ReadMem (0xE0040FF0, 0x0010 Bytes, ...) -- CPU is running -- CPU_ReadMem(16 bytes @ 0xE0040FF0) - Data: 0D 00 00 00 90 00 00 00 05 00 00 00 B1 00 00 00  returns 0x00 (0000ms, 0666ms total)
T12C0 000:821 JLINK_ReadMem (0xE0040FD0, 0x0020 Bytes, ...) -- CPU is running -- CPU_ReadMem(32 bytes @ 0xE0040FD0) - Data: 04 00 00 00 00 00 00 00 00 00 00 00 00 00 00 00 ...  returns 0x00 (0001ms, 0667ms total)
T12C0 000:822 JLINK_ReadMem (0xE0041FF0, 0x0010 Bytes, ...) -- CPU is running -- CPU_ReadMem(16 bytes @ 0xE0041FF0) - Data: 0D 00 00 00 90 00 00 00 05 00 00 00 B1 00 00 00  returns 0x00 (0001ms, 0668ms total)
T12C0 000:823 JLINK_ReadMem (0xE0041FD0, 0x0020 Bytes, ...) -- CPU is running -- CPU_ReadMem(32 bytes @ 0xE0041FD0) - Data: 04 00 00 00 00 00 00 00 00 00 00 00 00 00 00 00 ...  returns 0x00 (0001ms, 0669ms total)
T12C0 000:824 JLINK_ReadMemU32(0xE000EF40, 0x0001 Items, ...) -- CPU is running -- CPU_ReadMem(4 bytes @ 0xE000EF40) - Data: 21 00 11 10  returns 0x01 (0000ms, 0669ms total)
T12C0 000:824 JLINK_ReadMemU32(0xE000EF44, 0x0001 Items, ...) -- CPU is running -- CPU_ReadMem(4 bytes @ 0xE000EF44) - Data: 11 00 00 11  returns 0x01 (0001ms, 0670ms total)
T12C0 000:825 JLINK_ReadMemU32(0xE000ED00, 0x0001 Items, ...) -- CPU is running -- CPU_ReadMem(4 bytes @ 0xE000ED00) - Data: 41 C2 0F 41  returns 0x01 (0001ms, 0671ms total)
T12C0 000:826 JLINK_SetResetType(JLINKARM_RESET_TYPE_NORMAL)  returns JLINKARM_RESET_TYPE_NORMAL (0000ms, 0671ms total)
T12C0 000:826 JLINK_Reset() -- CPU is running -- CPU_WriteMem(4 bytes @ 0xE000EDF0) -- CPU is running -- CPU_WriteMem(4 bytes @ 0xE000EDFC) >0x35 TIF> -- CPU is running -- CPU_WriteMem(4 bytes @ 0xE000ED0C) -- CPU is running -- CPU_ReadMem(4 bytes @ 0xE000EDF0) -- CPU is running -- CPU_ReadMem(4 bytes @ 0xE000EDF0) -- CPU is running -- CPU_WriteMem(4 bytes @ 0xE000EDF0) -- CPU is running -- CPU_WriteMem(4 bytes @ 0xE000EDFC) -- CPU is running -- CPU_ReadMem(4 bytes @ 0xE000EDF0)
 -- CPU_WriteMem(4 bytes @ 0xE0002000) -- CPU_ReadMem(4 bytes @ 0xE000EDFC) -- CPU_ReadMem(4 bytes @ 0xE0001000) (0019ms, 0690ms total)
T12C0 000:846 JLINK_Halt()  returns 0x00 (0000ms, 0691ms total)
T12C0 000:846 JLINK_IsHalted()  returns TRUE (0000ms, 0691ms total)
T12C0 000:846 JLINK_ReadMemU32(0xE000EDF0, 0x0001 Items, ...) -- CPU_ReadMem(4 bytes @ 0xE000EDF0) - Data: 03 00 03 00  returns 0x01 (0000ms, 0691ms total)
T12C0 000:846 JLINK_WriteU32(0xE000EDF0, 0xA05F0003) -- CPU_WriteMem(4 bytes @ 0xE000EDF0)  returns 0x00 (0001ms, 0692ms total)
T12C0 000:847 JLINK_WriteU32(0xE000EDFC, 0x01000000) -- CPU_WriteMem(4 bytes @ 0xE000EDFC)  returns 0x00 (0001ms, 0693ms total)
T12C0 000:865 JLINK_GetHWStatus(...)  returns 0x00 (0000ms, 0693ms total)
T12C0 000:877 JLINK_GetNumBPUnits(Type = 0xFFFFFF00)  returns 0x06 (0000ms, 0693ms total)
T12C0 000:877 JLINK_GetNumBPUnits(Type = 0xF0)  returns 0x2000 (0000ms, 0693ms total)
T12C0 000:877 JLINK_GetNumWPUnits()  returns 0x04 (0000ms, 0693ms total)
T12C0 000:890 JLINK_GetSpeed()  returns 0xFA0 (0000ms, 0693ms total)
T12C0 000:901 JLINK_ReadMemU32(0xE000E004, 0x0001 Items, ...) -- CPU_ReadMem(4 bytes @ 0xE000E004) - Data: 02 00 00 00  returns 0x01 (0000ms, 0693ms total)
T12C0 000:901 JLINK_ReadMemU32(0xE000E004, 0x0001 Items, ...) -- CPU_ReadMem(4 bytes @ 0xE000E004) - Data: 02 00 00 00  returns 0x01 (0001ms, 0694ms total)
T12C0 000:902 JLINK_WriteMem(0xE0001000, 0x001C Bytes, ...) - Data: 01 00 00 00 00 00 00 00 00 00 00 00 00 00 00 00 ... -- CPU_WriteMem(28 bytes @ 0xE0001000)  returns 0x1C (0002ms, 0696ms total)
T12C0 000:904 JLINK_ReadMem (0xE0001000, 0x001C Bytes, ...) -- CPU_ReadMem(28 bytes @ 0xE0001000) - Data: 01 00 00 40 00 00 00 00 00 00 00 00 00 00 00 00 ...  returns 0x00 (0000ms, 0696ms total)
T12C0 000:904 JLINK_Halt()  returns 0x00 (0000ms, 0696ms total)
T12C0 000:904 JLINK_IsHalted()  returns TRUE (0000ms, 0696ms total)
T12C0 000:907 JLINK_WriteMem(0x20000000, 0x0180 Bytes, ...) - Data: 00 BE 0A E0 0D 78 2D 06 68 40 08 24 40 00 00 D3 ... -- CPU_WriteMem(384 bytes @ 0x20000000)  returns 0x180 (0004ms, 0700ms total)
T12C0 000:911 JLINK_WriteReg(R0, 0x08000000)  returns 0x00 (0000ms, 0700ms total)
T12C0 000:911 JLINK_WriteReg(R1, 0x00B71B00)  returns 0x00 (0000ms, 0700ms total)
T12C0 000:911 JLINK_WriteReg(R2, 0x00000001)  returns 0x00 (0000ms, 0700ms total)
T12C0 000:911 JLINK_WriteReg(R3, 0x00000000)  returns 0x00 (0000ms, 0700ms total)
T12C0 000:911 JLINK_WriteReg(R4, 0x00000000)  returns 0x00 (0000ms, 0700ms total)
T12C0 000:911 JLINK_WriteReg(R5, 0x00000000)  returns 0x00 (0000ms, 0700ms total)
T12C0 000:911 JLINK_WriteReg(R6, 0x00000000)  returns 0x00 (0000ms, 0700ms total)
T12C0 000:911 JLINK_WriteReg(R7, 0x00000000)  returns 0x00 (0000ms, 0700ms total)
T12C0 000:911 JLINK_WriteReg(R8, 0x00000000)  returns 0x00 (0000ms, 0700ms total)
T12C0 000:911 JLINK_WriteReg(R9, 0x2000017C)  returns 0x00 (0000ms, 0700ms total)
T12C0 000:911 JLINK_WriteReg(R10, 0x00000000)  returns 0x00 (0000ms, 0700ms total)
T12C0 000:911 JLINK_WriteReg(R11, 0x00000000)  returns 0x00 (0000ms, 0700ms total)
T12C0 000:911 JLINK_WriteReg(R12, 0x00000000)  returns 0x00 (0000ms, 0700ms total)
T12C0 000:911 JLINK_WriteReg(R13 (SP), 0x20001000)  returns 0x00 (0000ms, 0700ms total)
T12C0 000:911 JLINK_WriteReg(R14, 0x20000001)  returns 0x00 (0000ms, 0700ms total)
T12C0 000:911 JLINK_WriteReg(R15 (PC), 0x20000054)  returns 0x00 (0000ms, 0700ms total)
T12C0 000:911 JLINK_WriteReg(XPSR, 0x01000000)  returns 0x00 (0000ms, 0700ms total)
T12C0 000:911 JLINK_WriteReg(MSP, 0x20001000)  returns 0x00 (0000ms, 0700ms total)
T12C0 000:911 JLINK_WriteReg(PSP, 0x20001000)  returns 0x00 (0000ms, 0700ms total)
T12C0 000:911 JLINK_WriteReg(CFBP, 0x00000000)  returns 0x00 (0000ms, 0700ms total)
T12C0 000:911 JLINK_SetBPEx(Addr = 0x20000000, Type = 0xFFFFFFF2) -- CPU_ReadMem(2 bytes @ 0x20000000)  returns 0x00000001 (0001ms, 0701ms total)
T12C0 000:912 JLINK_Go() -- CPU_WriteMem(2 bytes @ 0x20000000) -- CPU_WriteMem(4 bytes @ 0xE0002008) -- CPU_WriteMem(4 bytes @ 0xE000200C) -- CPU_WriteMem(4 bytes @ 0xE0002010) -- CPU_WriteMem(4 bytes @ 0xE0002014) -- CPU_WriteMem(4 bytes @ 0xE0002018) -- CPU_WriteMem(4 bytes @ 0xE000201C) -- CPU_WriteMem(4 bytes @ 0xE0001004) (0006ms, 0707ms total)
T12C0 000:918 JLINK_IsHalted() -- CPU_ReadMem(2 bytes @ 0x20000000)  returns TRUE (0003ms, 0710ms total)
T12C0 000:921 JLINK_ReadReg(R15 (PC))  returns 0x20000000 (0000ms, 0707ms total)
T12C0 000:921 JLINK_ClrBPEx(BPHandle = 0x00000001)  returns 0x00 (0000ms, 0707ms total)
T12C0 000:921 JLINK_ReadReg(R0)  returns 0x00000000 (0000ms, 0707ms total)
T12C0 000:922 JLINK_WriteReg(R0, 0x08000000)  returns 0x00 (0000ms, 0707ms total)
T12C0 000:922 JLINK_WriteReg(R1, 0x00004000)  returns 0x00 (0000ms, 0707ms total)
T12C0 000:922 JLINK_WriteReg(R2, 0x000000FF)  returns 0x00 (0000ms, 0707ms total)
T12C0 000:922 JLINK_WriteReg(R3, 0x00000000)  returns 0x00 (0000ms, 0707ms total)
T12C0 000:922 JLINK_WriteReg(R4, 0x00000000)  returns 0x00 (0000ms, 0707ms total)
T12C0 000:922 JLINK_WriteReg(R5, 0x00000000)  returns 0x00 (0000ms, 0707ms total)
T12C0 000:922 JLINK_WriteReg(R6, 0x00000000)  returns 0x00 (0000ms, 0707ms total)
T12C0 000:922 JLINK_WriteReg(R7, 0x00000000)  returns 0x00 (0000ms, 0707ms total)
T12C0 000:922 JLINK_WriteReg(R8, 0x00000000)  returns 0x00 (0000ms, 0707ms total)
T12C0 000:922 JLINK_WriteReg(R9, 0x2000017C)  returns 0x00 (0000ms, 0707ms total)
T12C0 000:922 JLINK_WriteReg(R10, 0x00000000)  returns 0x00 (0000ms, 0707ms total)
T12C0 000:922 JLINK_WriteReg(R11, 0x00000000)  returns 0x00 (0000ms, 0707ms total)
T12C0 000:922 JLINK_WriteReg(R12, 0x00000000)  returns 0x00 (0000ms, 0707ms total)
T12C0 000:922 JLINK_WriteReg(R13 (SP), 0x20001000)  returns 0x00 (0000ms, 0707ms total)
T12C0 000:922 JLINK_WriteReg(R14, 0x20000001)  returns 0x00 (0000ms, 0707ms total)
T12C0 000:922 JLINK_WriteReg(R15 (PC), 0x20000020)  returns 0x00 (0000ms, 0707ms total)
T12C0 000:922 JLINK_WriteReg(XPSR, 0x01000000)  returns 0x00 (0000ms, 0707ms total)
T12C0 000:922 JLINK_WriteReg(MSP, 0x20001000)  returns 0x00 (0001ms, 0708ms total)
T12C0 000:923 JLINK_WriteReg(PSP, 0x20001000)  returns 0x00 (0000ms, 0708ms total)
T12C0 000:923 JLINK_WriteReg(CFBP, 0x00000000)  returns 0x00 (0000ms, 0708ms total)
T12C0 000:923 JLINK_SetBPEx(Addr = 0x20000000, Type = 0xFFFFFFF2)  returns 0x00000002 (0000ms, 0708ms total)
T12C0 000:923 JLINK_Go() (0001ms, 0709ms total)
T12C0 000:924 JLINK_IsHalted() -- CPU_ReadMem(2 bytes @ 0x20000000)  returns TRUE (0004ms, 0713ms total)
T12C0 000:928 JLINK_ReadReg(R15 (PC))  returns 0x20000000 (0000ms, 0709ms total)
T12C0 000:928 JLINK_ClrBPEx(BPHandle = 0x00000002)  returns 0x00 (0000ms, 0709ms total)
T12C0 000:928 JLINK_ReadReg(R0)  returns 0x00000001 (0000ms, 0709ms total)
T12C0 000:928 JLINK_WriteReg(R0, 0x08000000)  returns 0x00 (0000ms, 0709ms total)
T12C0 000:928 JLINK_WriteReg(R1, 0x00004000)  returns 0x00 (0000ms, 0709ms total)
T12C0 000:928 JLINK_WriteReg(R2, 0x000000FF)  returns 0x00 (0000ms, 0709ms total)
T12C0 000:928 JLINK_WriteReg(R3, 0x00000000)  returns 0x00 (0000ms, 0709ms total)
T12C0 000:928 JLINK_WriteReg(R4, 0x00000000)  returns 0x00 (0000ms, 0709ms total)
T12C0 000:928 JLINK_WriteReg(R5, 0x00000000)  returns 0x00 (0000ms, 0709ms total)
T12C0 000:928 JLINK_WriteReg(R6, 0x00000000)  returns 0x00 (0000ms, 0709ms total)
T12C0 000:928 JLINK_WriteReg(R7, 0x00000000)  returns 0x00 (0000ms, 0709ms total)
T12C0 000:928 JLINK_WriteReg(R8, 0x00000000)  returns 0x00 (0000ms, 0709ms total)
T12C0 000:928 JLINK_WriteReg(R9, 0x2000017C)  returns 0x00 (0000ms, 0709ms total)
T12C0 000:928 JLINK_WriteReg(R10, 0x00000000)  returns 0x00 (0000ms, 0709ms total)
T12C0 000:928 JLINK_WriteReg(R11, 0x00000000)  returns 0x00 (0000ms, 0709ms total)
T12C0 000:928 JLINK_WriteReg(R12, 0x00000000)  returns 0x00 (0000ms, 0709ms total)
T12C0 000:928 JLINK_WriteReg(R13 (SP), 0x20001000)  returns 0x00 (0000ms, 0709ms total)
T12C0 000:928 JLINK_WriteReg(R14, 0x20000001)  returns 0x00 (0000ms, 0709ms total)
T12C0 000:928 JLINK_WriteReg(R15 (PC), 0x200000BC)  returns 0x00 (0000ms, 0709ms total)
T12C0 000:928 JLINK_WriteReg(XPSR, 0x01000000)  returns 0x00 (0000ms, 0709ms total)
T12C0 000:928 JLINK_WriteReg(MSP, 0x20001000)  returns 0x00 (0000ms, 0709ms total)
T12C0 000:928 JLINK_WriteReg(PSP, 0x20001000)  returns 0x00 (0000ms, 0709ms total)
T12C0 000:928 JLINK_WriteReg(CFBP, 0x00000000)  returns 0x00 (0000ms, 0709ms total)
T12C0 000:928 JLINK_SetBPEx(Addr = 0x20000000, Type = 0xFFFFFFF2)  returns 0x00000003 (0000ms, 0709ms total)
T12C0 000:928 JLINK_Go() (0002ms, 0711ms total)
T12C0 000:930 JLINK_IsHalted()  returns FALSE (0001ms, 0712ms total)
T12C0 001:126 JLINK_IsHalted()  returns FALSE (0001ms, 0712ms total)
T12C0 001:255 JLINK_IsHalted()  returns FALSE (0000ms, 0711ms total)
T12C0 001:386 JLINK_IsHalted() -- CPU_ReadMem(2 bytes @ 0x20000000)  returns TRUE (0003ms, 0714ms total)
T12C0 001:389 JLINK_ReadReg(R15 (PC))  returns 0x20000000 (0000ms, 0711ms total)
T12C0 001:389 JLINK_ClrBPEx(BPHandle = 0x00000003)  returns 0x00 (0000ms, 0711ms total)
T12C0 001:389 JLINK_ReadReg(R0)  returns 0x00000000 (0000ms, 0711ms total)
T12C0 001:389 JLINK_WriteReg(R0, 0x08004000)  returns 0x00 (0000ms, 0711ms total)
T12C0 001:389 JLINK_WriteReg(R1, 0x00004000)  returns 0x00 (0000ms, 0711ms total)
T12C0 001:389 JLINK_WriteReg(R2, 0x000000FF)  returns 0x00 (0000ms, 0711ms total)
T12C0 001:389 JLINK_WriteReg(R3, 0x00000000)  returns 0x00 (0000ms, 0711ms total)
T12C0 001:389 JLINK_WriteReg(R4, 0x00000000)  returns 0x00 (0000ms, 0711ms total)
T12C0 001:389 JLINK_WriteReg(R5, 0x00000000)  returns 0x00 (0000ms, 0711ms total)
T12C0 001:389 JLINK_WriteReg(R6, 0x00000000)  returns 0x00 (0000ms, 0711ms total)
T12C0 001:389 JLINK_WriteReg(R7, 0x00000000)  returns 0x00 (0001ms, 0712ms total)
T12C0 001:390 JLINK_WriteReg(R8, 0x00000000)  returns 0x00 (0000ms, 0712ms total)
T12C0 001:390 JLINK_WriteReg(R9, 0x2000017C)  returns 0x00 (0000ms, 0712ms total)
T12C0 001:390 JLINK_WriteReg(R10, 0x00000000)  returns 0x00 (0000ms, 0712ms total)
T12C0 001:390 JLINK_WriteReg(R11, 0x00000000)  returns 0x00 (0000ms, 0712ms total)
T12C0 001:390 JLINK_WriteReg(R12, 0x00000000)  returns 0x00 (0000ms, 0712ms total)
T12C0 001:390 JLINK_WriteReg(R13 (SP), 0x20001000)  returns 0x00 (0000ms, 0712ms total)
T12C0 001:390 JLINK_WriteReg(R14, 0x20000001)  returns 0x00 (0000ms, 0712ms total)
T12C0 001:390 JLINK_WriteReg(R15 (PC), 0x20000020)  returns 0x00 (0000ms, 0712ms total)
T12C0 001:390 JLINK_WriteReg(XPSR, 0x01000000)  returns 0x00 (0000ms, 0712ms total)
T12C0 001:390 JLINK_WriteReg(MSP, 0x20001000)  returns 0x00 (0000ms, 0712ms total)
T12C0 001:390 JLINK_WriteReg(PSP, 0x20001000)  returns 0x00 (0000ms, 0712ms total)
T12C0 001:390 JLINK_WriteReg(CFBP, 0x00000000)  returns 0x00 (0000ms, 0712ms total)
T12C0 001:390 JLINK_SetBPEx(Addr = 0x20000000, Type = 0xFFFFFFF2)  returns 0x00000004 (0000ms, 0712ms total)
T12C0 001:390 JLINK_Go() (0001ms, 0713ms total)
T12C0 001:391 JLINK_IsHalted() -- CPU_ReadMem(2 bytes @ 0x20000000)  returns TRUE (0004ms, 0717ms total)
T12C0 001:395 JLINK_ReadReg(R15 (PC))  returns 0x20000000 (0000ms, 0713ms total)
T12C0 001:395 JLINK_ClrBPEx(BPHandle = 0x00000004)  returns 0x00 (0000ms, 0713ms total)
T12C0 001:395 JLINK_ReadReg(R0)  returns 0x00000001 (0000ms, 0713ms total)
T12C0 001:395 JLINK_WriteReg(R0, 0x08004000)  returns 0x00 (0000ms, 0713ms total)
T12C0 001:395 JLINK_WriteReg(R1, 0x00004000)  returns 0x00 (0000ms, 0713ms total)
T12C0 001:395 JLINK_WriteReg(R2, 0x000000FF)  returns 0x00 (0000ms, 0713ms total)
T12C0 001:395 JLINK_WriteReg(R3, 0x00000000)  returns 0x00 (0000ms, 0713ms total)
T12C0 001:395 JLINK_WriteReg(R4, 0x00000000)  returns 0x00 (0000ms, 0713ms total)
T12C0 001:395 JLINK_WriteReg(R5, 0x00000000)  returns 0x00 (0000ms, 0713ms total)
T12C0 001:395 JLINK_WriteReg(R6, 0x00000000)  returns 0x00 (0000ms, 0713ms total)
T12C0 001:395 JLINK_WriteReg(R7, 0x00000000)  returns 0x00 (0000ms, 0713ms total)
T12C0 001:395 JLINK_WriteReg(R8, 0x00000000)  returns 0x00 (0000ms, 0713ms total)
T12C0 001:395 JLINK_WriteReg(R9, 0x2000017C)  returns 0x00 (0000ms, 0713ms total)
T12C0 001:395 JLINK_WriteReg(R10, 0x00000000)  returns 0x00 (0000ms, 0713ms total)
T12C0 001:395 JLINK_WriteReg(R11, 0x00000000)  returns 0x00 (0000ms, 0713ms total)
T12C0 001:395 JLINK_WriteReg(R12, 0x00000000)  returns 0x00 (0000ms, 0713ms total)
T12C0 001:395 JLINK_WriteReg(R13 (SP), 0x20001000)  returns 0x00 (0000ms, 0713ms total)
T12C0 001:395 JLINK_WriteReg(R14, 0x20000001)  returns 0x00 (0000ms, 0713ms total)
T12C0 001:395 JLINK_WriteReg(R15 (PC), 0x200000BC)  returns 0x00 (0000ms, 0713ms total)
T12C0 001:395 JLINK_WriteReg(XPSR, 0x01000000)  returns 0x00 (0000ms, 0713ms total)
T12C0 001:395 JLINK_WriteReg(MSP, 0x20001000)  returns 0x00 (0000ms, 0713ms total)
T12C0 001:395 JLINK_WriteReg(PSP, 0x20001000)  returns 0x00 (0000ms, 0713ms total)
T12C0 001:395 JLINK_WriteReg(CFBP, 0x00000000)  returns 0x00 (0000ms, 0713ms total)
T12C0 001:395 JLINK_SetBPEx(Addr = 0x20000000, Type = 0xFFFFFFF2)  returns 0x00000005 (0000ms, 0713ms total)
T12C0 001:395 JLINK_Go() (0002ms, 0715ms total)
T12C0 001:397 JLINK_IsHalted()  returns FALSE (0000ms, 0715ms total)
T12C0 001:526 JLINK_IsHalted()  returns FALSE (0000ms, 0715ms total)
T12C0 001:652 JLINK_IsHalted()  returns FALSE (0000ms, 0715ms total)
T12C0 001:781 JLINK_IsHalted() -- CPU_ReadMem(2 bytes @ 0x20000000)  returns TRUE (0003ms, 0718ms total)
T12C0 001:784 JLINK_ReadReg(R15 (PC))  returns 0x20000000 (0000ms, 0715ms total)
T12C0 001:784 JLINK_ClrBPEx(BPHandle = 0x00000005)  returns 0x00 (0000ms, 0715ms total)
T12C0 001:784 JLINK_ReadReg(R0)  returns 0x00000000 (0000ms, 0715ms total)
T12C0 001:784 JLINK_WriteReg(R0, 0x08008000)  returns 0x00 (0000ms, 0715ms total)
T12C0 001:784 JLINK_WriteReg(R1, 0x00004000)  returns 0x00 (0000ms, 0715ms total)
T12C0 001:784 JLINK_WriteReg(R2, 0x000000FF)  returns 0x00 (0000ms, 0715ms total)
T12C0 001:784 JLINK_WriteReg(R3, 0x00000000)  returns 0x00 (0000ms, 0715ms total)
T12C0 001:784 JLINK_WriteReg(R4, 0x00000000)  returns 0x00 (0000ms, 0715ms total)
T12C0 001:784 JLINK_WriteReg(R5, 0x00000000)  returns 0x00 (0000ms, 0715ms total)
T12C0 001:784 JLINK_WriteReg(R6, 0x00000000)  returns 0x00 (0001ms, 0716ms total)
T12C0 001:785 JLINK_WriteReg(R7, 0x00000000)  returns 0x00 (0000ms, 0716ms total)
T12C0 001:785 JLINK_WriteReg(R8, 0x00000000)  returns 0x00 (0000ms, 0716ms total)
T12C0 001:785 JLINK_WriteReg(R9, 0x2000017C)  returns 0x00 (0000ms, 0716ms total)
T12C0 001:785 JLINK_WriteReg(R10, 0x00000000)  returns 0x00 (0000ms, 0716ms total)
T12C0 001:785 JLINK_WriteReg(R11, 0x00000000)  returns 0x00 (0000ms, 0716ms total)
T12C0 001:785 JLINK_WriteReg(R12, 0x00000000)  returns 0x00 (0000ms, 0716ms total)
T12C0 001:785 JLINK_WriteReg(R13 (SP), 0x20001000)  returns 0x00 (0000ms, 0716ms total)
T12C0 001:785 JLINK_WriteReg(R14, 0x20000001)  returns 0x00 (0000ms, 0716ms total)
T12C0 001:785 JLINK_WriteReg(R15 (PC), 0x20000020)  returns 0x00 (0000ms, 0716ms total)
T12C0 001:785 JLINK_WriteReg(XPSR, 0x01000000)  returns 0x00 (0000ms, 0716ms total)
T12C0 001:785 JLINK_WriteReg(MSP, 0x20001000)  returns 0x00 (0000ms, 0716ms total)
T12C0 001:785 JLINK_WriteReg(PSP, 0x20001000)  returns 0x00 (0000ms, 0716ms total)
T12C0 001:785 JLINK_WriteReg(CFBP, 0x00000000)  returns 0x00 (0000ms, 0716ms total)
T12C0 001:785 JLINK_SetBPEx(Addr = 0x20000000, Type = 0xFFFFFFF2)  returns 0x00000006 (0000ms, 0716ms total)
T12C0 001:785 JLINK_Go() (0001ms, 0717ms total)
T12C0 001:786 JLINK_IsHalted() -- CPU_ReadMem(2 bytes @ 0x20000000)  returns TRUE (0004ms, 0721ms total)
T12C0 001:790 JLINK_ReadReg(R15 (PC))  returns 0x20000000 (0000ms, 0717ms total)
T12C0 001:790 JLINK_ClrBPEx(BPHandle = 0x00000006)  returns 0x00 (0000ms, 0717ms total)
T12C0 001:790 JLINK_ReadReg(R0)  returns 0x00000001 (0000ms, 0717ms total)
T12C0 001:790 JLINK_WriteReg(R0, 0x08008000)  returns 0x00 (0000ms, 0717ms total)
T12C0 001:790 JLINK_WriteReg(R1, 0x00004000)  returns 0x00 (0000ms, 0717ms total)
T12C0 001:790 JLINK_WriteReg(R2, 0x000000FF)  returns 0x00 (0000ms, 0717ms total)
T12C0 001:790 JLINK_WriteReg(R3, 0x00000000)  returns 0x00 (0000ms, 0717ms total)
T12C0 001:790 JLINK_WriteReg(R4, 0x00000000)  returns 0x00 (0000ms, 0717ms total)
T12C0 001:790 JLINK_WriteReg(R5, 0x00000000)  returns 0x00 (0000ms, 0717ms total)
T12C0 001:790 JLINK_WriteReg(R6, 0x00000000)  returns 0x00 (0000ms, 0717ms total)
T12C0 001:790 JLINK_WriteReg(R7, 0x00000000)  returns 0x00 (0000ms, 0717ms total)
T12C0 001:790 JLINK_WriteReg(R8, 0x00000000)  returns 0x00 (0000ms, 0717ms total)
T12C0 001:790 JLINK_WriteReg(R9, 0x2000017C)  returns 0x00 (0000ms, 0717ms total)
T12C0 001:790 JLINK_WriteReg(R10, 0x00000000)  returns 0x00 (0000ms, 0717ms total)
T12C0 001:790 JLINK_WriteReg(R11, 0x00000000)  returns 0x00 (0000ms, 0717ms total)
T12C0 001:790 JLINK_WriteReg(R12, 0x00000000)  returns 0x00 (0000ms, 0717ms total)
T12C0 001:790 JLINK_WriteReg(R13 (SP), 0x20001000)  returns 0x00 (0000ms, 0717ms total)
T12C0 001:790 JLINK_WriteReg(R14, 0x20000001)  returns 0x00 (0000ms, 0717ms total)
T12C0 001:790 JLINK_WriteReg(R15 (PC), 0x200000BC)  returns 0x00 (0000ms, 0717ms total)
T12C0 001:790 JLINK_WriteReg(XPSR, 0x01000000)  returns 0x00 (0000ms, 0717ms total)
T12C0 001:790 JLINK_WriteReg(MSP, 0x20001000)  returns 0x00 (0000ms, 0717ms total)
T12C0 001:790 JLINK_WriteReg(PSP, 0x20001000)  returns 0x00 (0000ms, 0717ms total)
T12C0 001:790 JLINK_WriteReg(CFBP, 0x00000000)  returns 0x00 (0000ms, 0717ms total)
T12C0 001:790 JLINK_SetBPEx(Addr = 0x20000000, Type = 0xFFFFFFF2)  returns 0x00000007 (0000ms, 0717ms total)
T12C0 001:790 JLINK_Go() (0001ms, 0718ms total)
T12C0 001:791 JLINK_IsHalted()  returns FALSE (0001ms, 0719ms total)
T12C0 001:923 JLINK_IsHalted()  returns FALSE (0000ms, 0718ms total)
T12C0 002:059 JLINK_IsHalted()  returns FALSE (0000ms, 0718ms total)
T12C0 002:195 JLINK_IsHalted() -- CPU_ReadMem(2 bytes @ 0x20000000)  returns TRUE (0004ms, 0722ms total)
T12C0 002:199 JLINK_ReadReg(R15 (PC))  returns 0x20000000 (0000ms, 0718ms total)
T12C0 002:199 JLINK_ClrBPEx(BPHandle = 0x00000007)  returns 0x00 (0000ms, 0718ms total)
T12C0 002:199 JLINK_ReadReg(R0)  returns 0x00000000 (0000ms, 0718ms total)
T12C0 002:199 JLINK_WriteReg(R0, 0x00000001)  returns 0x00 (0000ms, 0718ms total)
T12C0 002:199 JLINK_WriteReg(R1, 0x00004000)  returns 0x00 (0000ms, 0718ms total)
T12C0 002:199 JLINK_WriteReg(R2, 0x000000FF)  returns 0x00 (0000ms, 0718ms total)
T12C0 002:199 JLINK_WriteReg(R3, 0x00000000)  returns 0x00 (0000ms, 0718ms total)
T12C0 002:199 JLINK_WriteReg(R4, 0x00000000)  returns 0x00 (0000ms, 0718ms total)
T12C0 002:199 JLINK_WriteReg(R5, 0x00000000)  returns 0x00 (0000ms, 0718ms total)
T12C0 002:199 JLINK_WriteReg(R6, 0x00000000)  returns 0x00 (0000ms, 0718ms total)
T12C0 002:199 JLINK_WriteReg(R7, 0x00000000)  returns 0x00 (0000ms, 0718ms total)
T12C0 002:199 JLINK_WriteReg(R8, 0x00000000)  returns 0x00 (0000ms, 0718ms total)
T12C0 002:199 JLINK_WriteReg(R9, 0x2000017C)  returns 0x00 (0000ms, 0718ms total)
T12C0 002:199 JLINK_WriteReg(R10, 0x00000000)  returns 0x00 (0000ms, 0718ms total)
T12C0 002:199 JLINK_WriteReg(R11, 0x00000000)  returns 0x00 (0000ms, 0718ms total)
T12C0 002:199 JLINK_WriteReg(R12, 0x00000000)  returns 0x00 (0000ms, 0718ms total)
T12C0 002:199 JLINK_WriteReg(R13 (SP), 0x20001000)  returns 0x00 (0000ms, 0718ms total)
T12C0 002:199 JLINK_WriteReg(R14, 0x20000001)  returns 0x00 (0000ms, 0718ms total)
T12C0 002:199 JLINK_WriteReg(R15 (PC), 0x20000082)  returns 0x00 (0000ms, 0718ms total)
T12C0 002:199 JLINK_WriteReg(XPSR, 0x01000000)  returns 0x00 (0000ms, 0718ms total)
T12C0 002:199 JLINK_WriteReg(MSP, 0x20001000)  returns 0x00 (0000ms, 0718ms total)
T12C0 002:199 JLINK_WriteReg(PSP, 0x20001000)  returns 0x00 (0000ms, 0718ms total)
T12C0 002:199 JLINK_WriteReg(CFBP, 0x00000000)  returns 0x00 (0000ms, 0718ms total)
T12C0 002:199 JLINK_SetBPEx(Addr = 0x20000000, Type = 0xFFFFFFF2)  returns 0x00000008 (0000ms, 0718ms total)
T12C0 002:199 JLINK_Go() (0002ms, 0720ms total)
T12C0 002:201 JLINK_IsHalted() -- CPU_ReadMem(2 bytes @ 0x20000000)  returns TRUE (0004ms, 0724ms total)
T12C0 002:205 JLINK_ReadReg(R15 (PC))  returns 0x20000000 (0000ms, 0720ms total)
T12C0 002:205 JLINK_ClrBPEx(BPHandle = 0x00000008)  returns 0x00 (0000ms, 0720ms total)
T12C0 002:205 JLINK_ReadReg(R0)  returns 0x00000000 (0000ms, 0720ms total)
T12C0 002:265 JLINK_WriteMem(0x20000000, 0x0180 Bytes, ...) - Data: 00 BE 0A E0 0D 78 2D 06 68 40 08 24 40 00 00 D3 ... -- CPU_WriteMem(384 bytes @ 0x20000000)  returns 0x180 (0003ms, 0723ms total)
T12C0 002:268 JLINK_WriteReg(R0, 0x08000000)  returns 0x00 (0000ms, 0723ms total)
T12C0 002:268 JLINK_WriteReg(R1, 0x00B71B00)  returns 0x00 (0000ms, 0723ms total)
T12C0 002:268 JLINK_WriteReg(R2, 0x00000002)  returns 0x00 (0000ms, 0723ms total)
T12C0 002:268 JLINK_WriteReg(R3, 0x00000000)  returns 0x00 (0000ms, 0723ms total)
T12C0 002:268 JLINK_WriteReg(R4, 0x00000000)  returns 0x00 (0000ms, 0723ms total)
T12C0 002:268 JLINK_WriteReg(R5, 0x00000000)  returns 0x00 (0000ms, 0723ms total)
T12C0 002:268 JLINK_WriteReg(R6, 0x00000000)  returns 0x00 (0000ms, 0723ms total)
T12C0 002:268 JLINK_WriteReg(R7, 0x00000000)  returns 0x00 (0000ms, 0723ms total)
T12C0 002:268 JLINK_WriteReg(R8, 0x00000000)  returns 0x00 (0000ms, 0723ms total)
T12C0 002:268 JLINK_WriteReg(R9, 0x2000017C)  returns 0x00 (0000ms, 0723ms total)
T12C0 002:268 JLINK_WriteReg(R10, 0x00000000)  returns 0x00 (0000ms, 0723ms total)
T12C0 002:268 JLINK_WriteReg(R11, 0x00000000)  returns 0x00 (0000ms, 0723ms total)
T12C0 002:268 JLINK_WriteReg(R12, 0x00000000)  returns 0x00 (0000ms, 0723ms total)
T12C0 002:268 JLINK_WriteReg(R13 (SP), 0x20001000)  returns 0x00 (0000ms, 0723ms total)
T12C0 002:268 JLINK_WriteReg(R14, 0x20000001)  returns 0x00 (0000ms, 0723ms total)
T12C0 002:268 JLINK_WriteReg(R15 (PC), 0x20000054)  returns 0x00 (0000ms, 0723ms total)
T12C0 002:268 JLINK_WriteReg(XPSR, 0x01000000)  returns 0x00 (0000ms, 0723ms total)
T12C0 002:268 JLINK_WriteReg(MSP, 0x20001000)  returns 0x00 (0000ms, 0723ms total)
T12C0 002:268 JLINK_WriteReg(PSP, 0x20001000)  returns 0x00 (0000ms, 0723ms total)
T12C0 002:268 JLINK_WriteReg(CFBP, 0x00000000)  returns 0x00 (0000ms, 0723ms total)
T12C0 002:268 JLINK_SetBPEx(Addr = 0x20000000, Type = 0xFFFFFFF2) -- CPU_ReadMem(2 bytes @ 0x20000000)  returns 0x00000009 (0001ms, 0724ms total)
T12C0 002:269 JLINK_Go() -- CPU_WriteMem(2 bytes @ 0x20000000) (0002ms, 0726ms total)
T12C0 002:272 JLINK_IsHalted() -- CPU_ReadMem(2 bytes @ 0x20000000)  returns TRUE (0003ms, 0730ms total)
T12C0 002:275 JLINK_ReadReg(R15 (PC))  returns 0x20000000 (0000ms, 0727ms total)
T12C0 002:275 JLINK_ClrBPEx(BPHandle = 0x00000009)  returns 0x00 (0000ms, 0727ms total)
T12C0 002:275 JLINK_ReadReg(R0)  returns 0x00000000 (0000ms, 0727ms total)
T12C0 002:275 JLINK_WriteMem(0x20000180, 0x0400 Bytes, ...) - Data: 50 24 00 20 71 02 00 08 1D 48 00 08 F1 44 00 08 ... -- CPU_WriteMem(1024 bytes @ 0x20000180)  returns 0x400 (0007ms, 0734ms total)
T12C0 002:282 JLINK_WriteReg(R0, 0x08000000)  returns 0x00 (0000ms, 0734ms total)
T12C0 002:282 JLINK_WriteReg(R1, 0x00000400)  returns 0x00 (0000ms, 0734ms total)
T12C0 002:282 JLINK_WriteReg(R2, 0x20000180)  returns 0x00 (0000ms, 0734ms total)
T12C0 002:282 JLINK_WriteReg(R3, 0x00000000)  returns 0x00 (0000ms, 0734ms total)
T12C0 002:282 JLINK_WriteReg(R4, 0x00000000)  returns 0x00 (0000ms, 0734ms total)
T12C0 002:282 JLINK_WriteReg(R5, 0x00000000)  returns 0x00 (0000ms, 0734ms total)
T12C0 002:282 JLINK_WriteReg(R6, 0x00000000)  returns 0x00 (0000ms, 0734ms total)
T12C0 002:282 JLINK_WriteReg(R7, 0x00000000)  returns 0x00 (0000ms, 0734ms total)
T12C0 002:282 JLINK_WriteReg(R8, 0x00000000)  returns 0x00 (0000ms, 0734ms total)
T12C0 002:282 JLINK_WriteReg(R9, 0x2000017C)  returns 0x00 (0000ms, 0734ms total)
T12C0 002:282 JLINK_WriteReg(R10, 0x00000000)  returns 0x00 (0000ms, 0734ms total)
T12C0 002:282 JLINK_WriteReg(R11, 0x00000000)  returns 0x00 (0000ms, 0734ms total)
T12C0 002:282 JLINK_WriteReg(R12, 0x00000000)  returns 0x00 (0000ms, 0734ms total)
T12C0 002:282 JLINK_WriteReg(R13 (SP), 0x20001000)  returns 0x00 (0000ms, 0734ms total)
T12C0 002:282 JLINK_WriteReg(R14, 0x20000001)  returns 0x00 (0000ms, 0734ms total)
T12C0 002:282 JLINK_WriteReg(R15 (PC), 0x20000108)  returns 0x00 (0000ms, 0734ms total)
T12C0 002:282 JLINK_WriteReg(XPSR, 0x01000000)  returns 0x00 (0000ms, 0734ms total)
T12C0 002:282 JLINK_WriteReg(MSP, 0x20001000)  returns 0x00 (0000ms, 0734ms total)
T12C0 002:282 JLINK_WriteReg(PSP, 0x20001000)  returns 0x00 (0000ms, 0734ms total)
T12C0 002:282 JLINK_WriteReg(CFBP, 0x00000000)  returns 0x00 (0000ms, 0734ms total)
T12C0 002:282 JLINK_SetBPEx(Addr = 0x20000000, Type = 0xFFFFFFF2)  returns 0x0000000A (0000ms, 0734ms total)
T12C0 002:282 JLINK_Go() (0002ms, 0736ms total)
T12C0 002:284 JLINK_IsHalted()  returns FALSE (0001ms, 0737ms total)
T12C0 002:414 JLINK_IsHalted() -- CPU_ReadMem(2 bytes @ 0x20000000)  returns TRUE (0003ms, 0739ms total)
T12C0 002:417 JLINK_ReadReg(R15 (PC))  returns 0x20000000 (0000ms, 0736ms total)
T12C0 002:417 JLINK_ClrBPEx(BPHandle = 0x0000000A)  returns 0x00 (0000ms, 0736ms total)
T12C0 002:417 JLINK_ReadReg(R0)  returns 0x00000000 (0000ms, 0736ms total)
T12C0 002:418 JLINK_WriteMem(0x20000180, 0x0400 Bytes, ...) - Data: 00 BF 20 68 00 28 FC D0 00 BF 20 68 00 F0 51 FA ... -- CPU_WriteMem(1024 bytes @ 0x20000180)  returns 0x400 (0007ms, 0743ms total)
T12C0 002:425 JLINK_WriteReg(R0, 0x08000400)  returns 0x00 (0000ms, 0743ms total)
T12C0 002:425 JLINK_WriteReg(R1, 0x00000400)  returns 0x00 (0000ms, 0743ms total)
T12C0 002:425 JLINK_WriteReg(R2, 0x20000180)  returns 0x00 (0000ms, 0743ms total)
T12C0 002:425 JLINK_WriteReg(R3, 0x00000000)  returns 0x00 (0000ms, 0743ms total)
T12C0 002:425 JLINK_WriteReg(R4, 0x00000000)  returns 0x00 (0000ms, 0743ms total)
T12C0 002:425 JLINK_WriteReg(R5, 0x00000000)  returns 0x00 (0000ms, 0743ms total)
T12C0 002:425 JLINK_WriteReg(R6, 0x00000000)  returns 0x00 (0000ms, 0743ms total)
T12C0 002:425 JLINK_WriteReg(R7, 0x00000000)  returns 0x00 (0000ms, 0743ms total)
T12C0 002:425 JLINK_WriteReg(R8, 0x00000000)  returns 0x00 (0000ms, 0743ms total)
T12C0 002:425 JLINK_WriteReg(R9, 0x2000017C)  returns 0x00 (0000ms, 0743ms total)
T12C0 002:425 JLINK_WriteReg(R10, 0x00000000)  returns 0x00 (0000ms, 0743ms total)
T12C0 002:425 JLINK_WriteReg(R11, 0x00000000)  returns 0x00 (0000ms, 0743ms total)
T12C0 002:425 JLINK_WriteReg(R12, 0x00000000)  returns 0x00 (0000ms, 0743ms total)
T12C0 002:425 JLINK_WriteReg(R13 (SP), 0x20001000)  returns 0x00 (0000ms, 0743ms total)
T12C0 002:425 JLINK_WriteReg(R14, 0x20000001)  returns 0x00 (0000ms, 0743ms total)
T12C0 002:425 JLINK_WriteReg(R15 (PC), 0x20000108)  returns 0x00 (0000ms, 0743ms total)
T12C0 002:425 JLINK_WriteReg(XPSR, 0x01000000)  returns 0x00 (0000ms, 0743ms total)
T12C0 002:425 JLINK_WriteReg(MSP, 0x20001000)  returns 0x00 (0000ms, 0743ms total)
T12C0 002:425 JLINK_WriteReg(PSP, 0x20001000)  returns 0x00 (0000ms, 0743ms total)
T12C0 002:425 JLINK_WriteReg(CFBP, 0x00000000)  returns 0x00 (0000ms, 0743ms total)
T12C0 002:425 JLINK_SetBPEx(Addr = 0x20000000, Type = 0xFFFFFFF2)  returns 0x0000000B (0000ms, 0743ms total)
T12C0 002:425 JLINK_Go() (0002ms, 0745ms total)
T12C0 002:427 JLINK_IsHalted()  returns FALSE (0001ms, 0746ms total)
T12C0 002:555 JLINK_IsHalted() -- CPU_ReadMem(2 bytes @ 0x20000000)  returns TRUE (0003ms, 0748ms total)
T12C0 002:558 JLINK_ReadReg(R15 (PC))  returns 0x20000000 (0000ms, 0745ms total)
T12C0 002:558 JLINK_ClrBPEx(BPHandle = 0x0000000B)  returns 0x00 (0000ms, 0745ms total)
T12C0 002:558 JLINK_ReadReg(R0)  returns 0x00000000 (0000ms, 0745ms total)
T12C0 002:559 JLINK_WriteMem(0x20000180, 0x0400 Bytes, ...) - Data: 00 29 FD D0 00 BF 72 B6 D1 E9 00 20 80 1A 0A 7C ... -- CPU_WriteMem(1024 bytes @ 0x20000180)  returns 0x400 (0006ms, 0751ms total)
T12C0 002:565 JLINK_WriteReg(R0, 0x08000800)  returns 0x00 (0000ms, 0751ms total)
T12C0 002:565 JLINK_WriteReg(R1, 0x00000400)  returns 0x00 (0000ms, 0751ms total)
T12C0 002:565 JLINK_WriteReg(R2, 0x20000180)  returns 0x00 (0000ms, 0751ms total)
T12C0 002:565 JLINK_WriteReg(R3, 0x00000000)  returns 0x00 (0000ms, 0751ms total)
T12C0 002:565 JLINK_WriteReg(R4, 0x00000000)  returns 0x00 (0000ms, 0751ms total)
T12C0 002:565 JLINK_WriteReg(R5, 0x00000000)  returns 0x00 (0000ms, 0751ms total)
T12C0 002:565 JLINK_WriteReg(R6, 0x00000000)  returns 0x00 (0000ms, 0751ms total)
T12C0 002:565 JLINK_WriteReg(R7, 0x00000000)  returns 0x00 (0000ms, 0751ms total)
T12C0 002:565 JLINK_WriteReg(R8, 0x00000000)  returns 0x00 (0000ms, 0751ms total)
T12C0 002:565 JLINK_WriteReg(R9, 0x2000017C)  returns 0x00 (0000ms, 0751ms total)
T12C0 002:565 JLINK_WriteReg(R10, 0x00000000)  returns 0x00 (0001ms, 0752ms total)
T12C0 002:566 JLINK_WriteReg(R11, 0x00000000)  returns 0x00 (0000ms, 0752ms total)
T12C0 002:566 JLINK_WriteReg(R12, 0x00000000)  returns 0x00 (0000ms, 0752ms total)
T12C0 002:566 JLINK_WriteReg(R13 (SP), 0x20001000)  returns 0x00 (0000ms, 0752ms total)
T12C0 002:566 JLINK_WriteReg(R14, 0x20000001)  returns 0x00 (0000ms, 0752ms total)
T12C0 002:566 JLINK_WriteReg(R15 (PC), 0x20000108)  returns 0x00 (0000ms, 0752ms total)
T12C0 002:566 JLINK_WriteReg(XPSR, 0x01000000)  returns 0x00 (0000ms, 0752ms total)
T12C0 002:566 JLINK_WriteReg(MSP, 0x20001000)  returns 0x00 (0000ms, 0752ms total)
T12C0 002:566 JLINK_WriteReg(PSP, 0x20001000)  returns 0x00 (0000ms, 0752ms total)
T12C0 002:566 JLINK_WriteReg(CFBP, 0x00000000)  returns 0x00 (0000ms, 0752ms total)
T12C0 002:566 JLINK_SetBPEx(Addr = 0x20000000, Type = 0xFFFFFFF2)  returns 0x0000000C (0000ms, 0752ms total)
T12C0 002:566 JLINK_Go() (0002ms, 0754ms total)
T12C0 002:568 JLINK_IsHalted()  returns FALSE (0000ms, 0754ms total)
T12C0 002:696 JLINK_IsHalted() -- CPU_ReadMem(2 bytes @ 0x20000000)  returns TRUE (0003ms, 0757ms total)
T12C0 002:699 JLINK_ReadReg(R15 (PC))  returns 0x20000000 (0000ms, 0754ms total)
T12C0 002:699 JLINK_ClrBPEx(BPHandle = 0x0000000C)  returns 0x00 (0000ms, 0754ms total)
T12C0 002:699 JLINK_ReadReg(R0)  returns 0x00000000 (0000ms, 0754ms total)
T12C0 002:699 JLINK_WriteMem(0x20000180, 0x0400 Bytes, ...) - Data: 00 00 02 40 00 64 00 40 00 B5 85 B0 02 21 0B 48 ... -- CPU_WriteMem(1024 bytes @ 0x20000180)  returns 0x400 (0007ms, 0761ms total)
T12C0 002:706 JLINK_WriteReg(R0, 0x08000C00)  returns 0x00 (0000ms, 0761ms total)
T12C0 002:706 JLINK_WriteReg(R1, 0x00000400)  returns 0x00 (0000ms, 0761ms total)
T12C0 002:706 JLINK_WriteReg(R2, 0x20000180)  returns 0x00 (0000ms, 0761ms total)
T12C0 002:706 JLINK_WriteReg(R3, 0x00000000)  returns 0x00 (0000ms, 0761ms total)
T12C0 002:706 JLINK_WriteReg(R4, 0x00000000)  returns 0x00 (0000ms, 0761ms total)
T12C0 002:706 JLINK_WriteReg(R5, 0x00000000)  returns 0x00 (0000ms, 0761ms total)
T12C0 002:706 JLINK_WriteReg(R6, 0x00000000)  returns 0x00 (0000ms, 0761ms total)
T12C0 002:706 JLINK_WriteReg(R7, 0x00000000)  returns 0x00 (0000ms, 0761ms total)
T12C0 002:706 JLINK_WriteReg(R8, 0x00000000)  returns 0x00 (0000ms, 0761ms total)
T12C0 002:706 JLINK_WriteReg(R9, 0x2000017C)  returns 0x00 (0000ms, 0761ms total)
T12C0 002:706 JLINK_WriteReg(R10, 0x00000000)  returns 0x00 (0000ms, 0761ms total)
T12C0 002:706 JLINK_WriteReg(R11, 0x00000000)  returns 0x00 (0000ms, 0761ms total)
T12C0 002:706 JLINK_WriteReg(R12, 0x00000000)  returns 0x00 (0000ms, 0761ms total)
T12C0 002:706 JLINK_WriteReg(R13 (SP), 0x20001000)  returns 0x00 (0000ms, 0761ms total)
T12C0 002:706 JLINK_WriteReg(R14, 0x20000001)  returns 0x00 (0000ms, 0761ms total)
T12C0 002:706 JLINK_WriteReg(R15 (PC), 0x20000108)  returns 0x00 (0000ms, 0761ms total)
T12C0 002:706 JLINK_WriteReg(XPSR, 0x01000000)  returns 0x00 (0000ms, 0761ms total)
T12C0 002:706 JLINK_WriteReg(MSP, 0x20001000)  returns 0x00 (0000ms, 0761ms total)
T12C0 002:706 JLINK_WriteReg(PSP, 0x20001000)  returns 0x00 (0000ms, 0761ms total)
T12C0 002:706 JLINK_WriteReg(CFBP, 0x00000000)  returns 0x00 (0000ms, 0761ms total)
T12C0 002:706 JLINK_SetBPEx(Addr = 0x20000000, Type = 0xFFFFFFF2)  returns 0x0000000D (0000ms, 0761ms total)
T12C0 002:706 JLINK_Go() (0002ms, 0763ms total)
T12C0 002:708 JLINK_IsHalted()  returns FALSE (0001ms, 0764ms total)
T12C0 002:833 JLINK_IsHalted() -- CPU_ReadMem(2 bytes @ 0x20000000)  returns TRUE (0003ms, 0766ms total)
T12C0 002:836 JLINK_ReadReg(R15 (PC))  returns 0x20000000 (0000ms, 0763ms total)
T12C0 002:836 JLINK_ClrBPEx(BPHandle = 0x0000000D)  returns 0x00 (0000ms, 0763ms total)
T12C0 002:836 JLINK_ReadReg(R0)  returns 0x00000000 (0000ms, 0763ms total)
T12C0 002:837 JLINK_WriteMem(0x20000180, 0x0400 Bytes, ...) - Data: 06 DC 01 2D 20 D0 02 2D 24 D0 04 2D 72 D1 27 E0 ... -- CPU_WriteMem(1024 bytes @ 0x20000180)  returns 0x400 (0006ms, 0769ms total)
T12C0 002:843 JLINK_WriteReg(R0, 0x08001000)  returns 0x00 (0000ms, 0769ms total)
T12C0 002:843 JLINK_WriteReg(R1, 0x00000400)  returns 0x00 (0000ms, 0769ms total)
T12C0 002:843 JLINK_WriteReg(R2, 0x20000180)  returns 0x00 (0000ms, 0769ms total)
T12C0 002:843 JLINK_WriteReg(R3, 0x00000000)  returns 0x00 (0001ms, 0770ms total)
T12C0 002:844 JLINK_WriteReg(R4, 0x00000000)  returns 0x00 (0000ms, 0770ms total)
T12C0 002:844 JLINK_WriteReg(R5, 0x00000000)  returns 0x00 (0000ms, 0770ms total)
T12C0 002:844 JLINK_WriteReg(R6, 0x00000000)  returns 0x00 (0000ms, 0770ms total)
T12C0 002:844 JLINK_WriteReg(R7, 0x00000000)  returns 0x00 (0000ms, 0770ms total)
T12C0 002:844 JLINK_WriteReg(R8, 0x00000000)  returns 0x00 (0000ms, 0770ms total)
T12C0 002:844 JLINK_WriteReg(R9, 0x2000017C)  returns 0x00 (0000ms, 0770ms total)
T12C0 002:844 JLINK_WriteReg(R10, 0x00000000)  returns 0x00 (0000ms, 0770ms total)
T12C0 002:844 JLINK_WriteReg(R11, 0x00000000)  returns 0x00 (0000ms, 0770ms total)
T12C0 002:844 JLINK_WriteReg(R12, 0x00000000)  returns 0x00 (0000ms, 0770ms total)
T12C0 002:844 JLINK_WriteReg(R13 (SP), 0x20001000)  returns 0x00 (0000ms, 0770ms total)
T12C0 002:844 JLINK_WriteReg(R14, 0x20000001)  returns 0x00 (0000ms, 0770ms total)
T12C0 002:844 JLINK_WriteReg(R15 (PC), 0x20000108)  returns 0x00 (0000ms, 0770ms total)
T12C0 002:844 JLINK_WriteReg(XPSR, 0x01000000)  returns 0x00 (0000ms, 0770ms total)
T12C0 002:844 JLINK_WriteReg(MSP, 0x20001000)  returns 0x00 (0000ms, 0770ms total)
T12C0 002:844 JLINK_WriteReg(PSP, 0x20001000)  returns 0x00 (0000ms, 0770ms total)
T12C0 002:844 JLINK_WriteReg(CFBP, 0x00000000)  returns 0x00 (0000ms, 0770ms total)
T12C0 002:844 JLINK_SetBPEx(Addr = 0x20000000, Type = 0xFFFFFFF2)  returns 0x0000000E (0000ms, 0770ms total)
T12C0 002:844 JLINK_Go() (0002ms, 0772ms total)
T12C0 002:846 JLINK_IsHalted()  returns FALSE (0000ms, 0772ms total)
T12C0 002:971 JLINK_IsHalted() -- CPU_ReadMem(2 bytes @ 0x20000000)  returns TRUE (0003ms, 0775ms total)
T12C0 002:974 JLINK_ReadReg(R15 (PC))  returns 0x20000000 (0000ms, 0772ms total)
T12C0 002:974 JLINK_ClrBPEx(BPHandle = 0x0000000E)  returns 0x00 (0000ms, 0772ms total)
T12C0 002:974 JLINK_ReadReg(R0)  returns 0x00000000 (0000ms, 0772ms total)
T12C0 002:974 JLINK_WriteMem(0x20000180, 0x0400 Bytes, ...) - Data: 02 F5 C0 74 04 EB 00 14 63 60 8B 7B 1C 06 4B 7B ... -- CPU_WriteMem(1024 bytes @ 0x20000180)  returns 0x400 (0007ms, 0779ms total)
T12C0 002:981 JLINK_WriteReg(R0, 0x08001400)  returns 0x00 (0000ms, 0779ms total)
T12C0 002:981 JLINK_WriteReg(R1, 0x00000400)  returns 0x00 (0000ms, 0779ms total)
T12C0 002:981 JLINK_WriteReg(R2, 0x20000180)  returns 0x00 (0000ms, 0779ms total)
T12C0 002:981 JLINK_WriteReg(R3, 0x00000000)  returns 0x00 (0000ms, 0779ms total)
T12C0 002:981 JLINK_WriteReg(R4, 0x00000000)  returns 0x00 (0000ms, 0779ms total)
T12C0 002:981 JLINK_WriteReg(R5, 0x00000000)  returns 0x00 (0000ms, 0779ms total)
T12C0 002:981 JLINK_WriteReg(R6, 0x00000000)  returns 0x00 (0000ms, 0779ms total)
T12C0 002:981 JLINK_WriteReg(R7, 0x00000000)  returns 0x00 (0000ms, 0779ms total)
T12C0 002:981 JLINK_WriteReg(R8, 0x00000000)  returns 0x00 (0000ms, 0779ms total)
T12C0 002:981 JLINK_WriteReg(R9, 0x2000017C)  returns 0x00 (0000ms, 0779ms total)
T12C0 002:981 JLINK_WriteReg(R10, 0x00000000)  returns 0x00 (0000ms, 0779ms total)
T12C0 002:981 JLINK_WriteReg(R11, 0x00000000)  returns 0x00 (0000ms, 0779ms total)
T12C0 002:981 JLINK_WriteReg(R12, 0x00000000)  returns 0x00 (0000ms, 0779ms total)
T12C0 002:981 JLINK_WriteReg(R13 (SP), 0x20001000)  returns 0x00 (0000ms, 0779ms total)
T12C0 002:981 JLINK_WriteReg(R14, 0x20000001)  returns 0x00 (0000ms, 0779ms total)
T12C0 002:981 JLINK_WriteReg(R15 (PC), 0x20000108)  returns 0x00 (0000ms, 0779ms total)
T12C0 002:981 JLINK_WriteReg(XPSR, 0x01000000)  returns 0x00 (0000ms, 0779ms total)
T12C0 002:981 JLINK_WriteReg(MSP, 0x20001000)  returns 0x00 (0000ms, 0779ms total)
T12C0 002:981 JLINK_WriteReg(PSP, 0x20001000)  returns 0x00 (0000ms, 0779ms total)
T12C0 002:982 JLINK_WriteReg(CFBP, 0x00000000)  returns 0x00 (0000ms, 0779ms total)
T12C0 002:982 JLINK_SetBPEx(Addr = 0x20000000, Type = 0xFFFFFFF2)  returns 0x0000000F (0000ms, 0779ms total)
T12C0 002:982 JLINK_Go() (0001ms, 0780ms total)
T12C0 002:983 JLINK_IsHalted()  returns FALSE (0001ms, 0781ms total)
T12C0 003:118 JLINK_IsHalted() -- CPU_ReadMem(2 bytes @ 0x20000000)  returns TRUE (0003ms, 0783ms total)
T12C0 003:121 JLINK_ReadReg(R15 (PC))  returns 0x20000000 (0000ms, 0780ms total)
T12C0 003:121 JLINK_ClrBPEx(BPHandle = 0x0000000F)  returns 0x00 (0000ms, 0780ms total)
T12C0 003:121 JLINK_ReadReg(R0)  returns 0x00000000 (0000ms, 0780ms total)
T12C0 003:122 JLINK_WriteMem(0x20000180, 0x0400 Bytes, ...) - Data: 8D FA 41 EC 10 0B 21 48 80 ED 10 0B 15 48 90 ED ... -- CPU_WriteMem(1024 bytes @ 0x20000180)  returns 0x400 (0007ms, 0787ms total)
T12C0 003:129 JLINK_WriteReg(R0, 0x08001800)  returns 0x00 (0000ms, 0787ms total)
T12C0 003:129 JLINK_WriteReg(R1, 0x00000400)  returns 0x00 (0000ms, 0787ms total)
T12C0 003:129 JLINK_WriteReg(R2, 0x20000180)  returns 0x00 (0000ms, 0787ms total)
T12C0 003:129 JLINK_WriteReg(R3, 0x00000000)  returns 0x00 (0000ms, 0787ms total)
T12C0 003:129 JLINK_WriteReg(R4, 0x00000000)  returns 0x00 (0000ms, 0787ms total)
T12C0 003:129 JLINK_WriteReg(R5, 0x00000000)  returns 0x00 (0000ms, 0787ms total)
T12C0 003:129 JLINK_WriteReg(R6, 0x00000000)  returns 0x00 (0000ms, 0787ms total)
T12C0 003:129 JLINK_WriteReg(R7, 0x00000000)  returns 0x00 (0000ms, 0787ms total)
T12C0 003:129 JLINK_WriteReg(R8, 0x00000000)  returns 0x00 (0000ms, 0787ms total)
T12C0 003:129 JLINK_WriteReg(R9, 0x2000017C)  returns 0x00 (0000ms, 0787ms total)
T12C0 003:129 JLINK_WriteReg(R10, 0x00000000)  returns 0x00 (0000ms, 0787ms total)
T12C0 003:129 JLINK_WriteReg(R11, 0x00000000)  returns 0x00 (0000ms, 0787ms total)
T12C0 003:129 JLINK_WriteReg(R12, 0x00000000)  returns 0x00 (0000ms, 0787ms total)
T12C0 003:129 JLINK_WriteReg(R13 (SP), 0x20001000)  returns 0x00 (0000ms, 0787ms total)
T12C0 003:129 JLINK_WriteReg(R14, 0x20000001)  returns 0x00 (0000ms, 0787ms total)
T12C0 003:129 JLINK_WriteReg(R15 (PC), 0x20000108)  returns 0x00 (0000ms, 0787ms total)
T12C0 003:129 JLINK_WriteReg(XPSR, 0x01000000)  returns 0x00 (0000ms, 0787ms total)
T12C0 003:129 JLINK_WriteReg(MSP, 0x20001000)  returns 0x00 (0000ms, 0787ms total)
T12C0 003:129 JLINK_WriteReg(PSP, 0x20001000)  returns 0x00 (0000ms, 0787ms total)
T12C0 003:129 JLINK_WriteReg(CFBP, 0x00000000)  returns 0x00 (0000ms, 0787ms total)
T12C0 003:129 JLINK_SetBPEx(Addr = 0x20000000, Type = 0xFFFFFFF2)  returns 0x00000010 (0000ms, 0787ms total)
T12C0 003:129 JLINK_Go() (0002ms, 0789ms total)
T12C0 003:131 JLINK_IsHalted()  returns FALSE (0001ms, 0790ms total)
T12C0 003:261 JLINK_IsHalted() -- CPU_ReadMem(2 bytes @ 0x20000000)  returns TRUE (0004ms, 0793ms total)
T12C0 003:265 JLINK_ReadReg(R15 (PC))  returns 0x20000000 (0000ms, 0789ms total)
T12C0 003:265 JLINK_ClrBPEx(BPHandle = 0x00000010)  returns 0x00 (0000ms, 0789ms total)
T12C0 003:265 JLINK_ReadReg(R0)  returns 0x00000000 (0000ms, 0789ms total)
T12C0 003:265 JLINK_WriteMem(0x20000180, 0x0400 Bytes, ...) - Data: CB 0B C3 48 80 ED 0C 0B 00 E0 FC E3 9F ED C7 0B ... -- CPU_WriteMem(1024 bytes @ 0x20000180)  returns 0x400 (0007ms, 0796ms total)
T12C0 003:272 JLINK_WriteReg(R0, 0x08001C00)  returns 0x00 (0000ms, 0796ms total)
T12C0 003:272 JLINK_WriteReg(R1, 0x00000400)  returns 0x00 (0000ms, 0796ms total)
T12C0 003:272 JLINK_WriteReg(R2, 0x20000180)  returns 0x00 (0000ms, 0796ms total)
T12C0 003:272 JLINK_WriteReg(R3, 0x00000000)  returns 0x00 (0000ms, 0796ms total)
T12C0 003:272 JLINK_WriteReg(R4, 0x00000000)  returns 0x00 (0000ms, 0796ms total)
T12C0 003:272 JLINK_WriteReg(R5, 0x00000000)  returns 0x00 (0000ms, 0796ms total)
T12C0 003:272 JLINK_WriteReg(R6, 0x00000000)  returns 0x00 (0000ms, 0796ms total)
T12C0 003:272 JLINK_WriteReg(R7, 0x00000000)  returns 0x00 (0000ms, 0796ms total)
T12C0 003:272 JLINK_WriteReg(R8, 0x00000000)  returns 0x00 (0000ms, 0796ms total)
T12C0 003:272 JLINK_WriteReg(R9, 0x2000017C)  returns 0x00 (0000ms, 0796ms total)
T12C0 003:272 JLINK_WriteReg(R10, 0x00000000)  returns 0x00 (0000ms, 0796ms total)
T12C0 003:272 JLINK_WriteReg(R11, 0x00000000)  returns 0x00 (0000ms, 0796ms total)
T12C0 003:272 JLINK_WriteReg(R12, 0x00000000)  returns 0x00 (0000ms, 0796ms total)
T12C0 003:272 JLINK_WriteReg(R13 (SP), 0x20001000)  returns 0x00 (0000ms, 0796ms total)
T12C0 003:272 JLINK_WriteReg(R14, 0x20000001)  returns 0x00 (0000ms, 0796ms total)
T12C0 003:272 JLINK_WriteReg(R15 (PC), 0x20000108)  returns 0x00 (0000ms, 0796ms total)
T12C0 003:272 JLINK_WriteReg(XPSR, 0x01000000)  returns 0x00 (0000ms, 0796ms total)
T12C0 003:272 JLINK_WriteReg(MSP, 0x20001000)  returns 0x00 (0000ms, 0796ms total)
T12C0 003:272 JLINK_WriteReg(PSP, 0x20001000)  returns 0x00 (0000ms, 0796ms total)
T12C0 003:272 JLINK_WriteReg(CFBP, 0x00000000)  returns 0x00 (0000ms, 0796ms total)
T12C0 003:272 JLINK_SetBPEx(Addr = 0x20000000, Type = 0xFFFFFFF2)  returns 0x00000011 (0000ms, 0796ms total)
T12C0 003:272 JLINK_Go() (0002ms, 0798ms total)
T12C0 003:274 JLINK_IsHalted()  returns FALSE (0001ms, 0799ms total)
T12C0 003:402 JLINK_IsHalted() -- CPU_ReadMem(2 bytes @ 0x20000000)  returns TRUE (0005ms, 0803ms total)
T12C0 003:407 JLINK_ReadReg(R15 (PC))  returns 0x20000000 (0000ms, 0798ms total)
T12C0 003:407 JLINK_ClrBPEx(BPHandle = 0x00000011)  returns 0x00 (0000ms, 0798ms total)
T12C0 003:407 JLINK_ReadReg(R0)  returns 0x00000000 (0000ms, 0798ms total)
T12C0 003:408 JLINK_WriteMem(0x20000180, 0x0400 Bytes, ...) - Data: 10 0B 05 F0 8B FE D7 4A 03 C2 D4 48 B0 F9 00 00 ... -- CPU_WriteMem(1024 bytes @ 0x20000180)  returns 0x400 (0007ms, 0805ms total)
T12C0 003:415 JLINK_WriteReg(R0, 0x08002000)  returns 0x00 (0000ms, 0805ms total)
